time_s,iq_ref_a,id_a,iq_a,vd_v,vq_v,voltage_mag_norm,wm_rad_per_s
0,-0.3,0,0,0,-0.2854397,0.0458052,0
5e-05,-0.3,0,0,0,-0.4104092,0.06585937,0
0.0001,-0.3,4.903352e-06,-0.2461372,-4.66537e-06,-0.3011877,0.04833232,-0.6660126
0.00015,-0.3,5.66987e-05,-0.3838295,-5.598943e-05,-0.1926156,0.0309095,-2.138812
0.0002,-0.3,0.0001254183,-0.303118,-0.0001449924,-0.2344894,0.03762909,-3.63612
0.00025,-0.3,0.0001014572,-0.1945791,-0.0001744392,-0.3364615,0.0539928,-4.697354
0.0003,-0.3,8.574284e-05,-0.2134601,-0.000201751,-0.3624115,0.05815707,-5.618204
0.00035,-0.3,0.000198808,-0.3011009,-0.0003450461,-0.3150739,0.0505607,-6.809505
0.0004,-0.3,0.0003001572,-0.3312975,-0.0005242928,-0.2858843,0.04587663,-8.237123
0.00045,-0.3,0.0002178099,-0.2901474,-0.0005709772,-0.3119998,0.05006745,-9.606662
0.0005,0.3,7.484248e-05,-0.2555697,-0.0005256807,0.2218759,0.03560506,-10.81005
0.00055,0.3,0.000119251,-0.2700283,-0.0005991107,0.4670637,0.07495092,-11.99156
0.0006,0.3,-0.0008438922,0.1919751,0.000267611,0.2649373,0.04251517,-11.94845
0.00065,0.3,-0.001614934,0.4631703,0.001352766,0.05190384,0.008331965,-10.35652
0.0007,0.3,-0.0005387592,0.3193023,0.001001549,0.1208183,0.01938867,-8.67545
0.00075,0.3,0.0009701478,0.1119528,-0.000209696,0.3100635,0.04975665,-7.809242
0.0008,0.3,0.0008149537,0.1419203,-0.0004661639,0.3598844,0.05775157,-7.22773
0.00085,0.3,-0.0004718497,0.3072621,0.0004187038,0.2684179,0.04307372,-6.14596
0.0009,0.3,-0.0008741706,0.3684416,0.0009980544,0.2071825,0.03324747,-4.606967
0.00095,0.3,4.240312e-06,0.2929253,0.0005264258,0.2505233,0.04020218,-3.164385
0.001,-0.3,0.0007349243,0.2260421,-0.0001705613,-0.2537719,0.0407234,-2.035998
0.00105,-0.3,0.0004588617,0.2513883,-0.0002140411,-0.4970188,0.07975782,-0.9570158
0.0011,-0.3,-3.789039e-05,-0.1833926,6.74556e-05,-0.3130289,0.05023251,-1.009776
0.00115,-0.3,-8.413149e-05,-0.4493567,0.0001272362,-0.1085478,0.01741895,-2.549195
0.0012,-0.3,0.0002012956,-0.3206039,-0.0001092915,-0.1688349,0.02709335,-4.209414
0.00125,-0.3,0.0002334251,-0.122649,-0.0002237143,-0.3485993,0.05594059,-5.106862
0.0013,-0.3,8.875411e-05,-0.1463024,-0.0001833017,-0.3999722,0.06418452,-5.7191
0.00135,-0.3,0.0001699072,-0.302561,-0.0002974879,-0.3153226,0.05060061,-6.79588
0.0014,-0.3,0.0003571231,-0.363916,-0.0005463948,-0.2558786,0.04106156,-8.314333
0.00145,-0.3,0.0002758149,-0.2943611,-0.000617798,-0.2954325,0.04740889,-9.752817
0.0015,0.3,2.14125e-05,-0.2298076,-0.0004906377,0.2116774,0.03396849,-10.89393
0.00155,0.3,4.084222e-05,-0.2521529,-0.0005180441,0.4536376,0.07279638,-11.98162
0.0016,0.3,-0.0008074744,0.1854689,0.0002720864,0.2672632,0.0428884,-11.92459
0.00165,0.3,-0.001510195,0.4506783,0.001277066,0.06263527,0.01005332,-10.37793
0.0017,0.3,-0.0005241935,0.3197518,0.0009680146,0.12444,0.01996979,-8.717686
0.00175,0.3,0.0008893798,0.1213905,-0.0001585908,0.3049461,0.04893544,-7.825147
0.0018,0.3,0.0007689237,0.1463141,-0.0004144657,0.3556345,0.05706958,-7.215096
0.00185,0.3,-0.0004275516,0.3033814,0.0004036324,0.2702106,0.04336141,-6.136076
0.0019,0.3,-0.0008185785,0.3642448,0.0009537842,0.2108927,0.03384281,-4.615285
0.00195,0.3,-2.807472e-06,0.293952,0.0005185975,0.2510117,0.04028054,-3.177329
0.002,-0.3,0.0006933603,0.2294129,-0.0001426127,-0.2559415,0.04107156,-2.038009
0.00205,-0.3,0.0004457776,0.2522525,-0.0001958759,-0.4982075,0.07994858,-0.9507423
0.0021,-0.3,-1.516147e-05,-0.1851702,5.699624e-05,-0.3120641,0.05007769,-1.006788
0.00215,-0.3,-6.558653e-05,-0.4506214,0.0001112897,-0.1073306,0.01722361,-2.552764
0.0022,-0.3,0.0001944974,-0.3199252,-0.0001088501,-0.1689398,0.02711019,-4.213378
0.00225,-0.3,0.000217923,-0.1214994,-0.0002121596,-0.349435,0.0560747,-5.106519
0.0023,-0.3,8.714432e-05,-0.1462449,-0.0001785074,-0.4002477,0.06422873,-5.716574
0.00235,-0.3,0.0001805844,-0.3032817,-0.0003037136,-0.3148816,0.05052984,-6.795202
0.0024,-0.3,0.0003630733,-0.3642489,-0.0005525707,-0.2555063,0.04100182,-8.315827
0.00245,-0.3,0.0002706423,-0.2940195,-0.0006158695,-0.2955634,0.04742988,-9.753974
0.0025,0.3,1.473492e-05,-0.2294389,-0.0004851226,0.2113785,0.03392052,-10.89348
0.00255,0.3,4.202127e-05,-0.2522191,-0.0005172227,0.4535989,0.07279017,-11.98071
0.0026,0.3,-0.0008020601,0.1851999,0.000268387,0.267445,0.04291758,-11.92452
0.00265,0.3,-0.001509034,0.45061,0.001275159,0.06273828,0.01006984,-10.37852
0.0027,0.3,-0.0005276231,0.3199015,0.000969991,0.124364,0.0199576,-8.717991
0.00275,0.3,0.0008869437,0.1214998,-0.000156131,0.3048461,0.0489194,-7.824893
0.0028,0.3,0.0007704506,0.1462619,-0.0004147617,0.3556428,0.05707091,-7.214791
0.00285,0.3,-0.0004251963,0.3032876,0.0004019121,0.2702802,0.04337257,-6.136116
0.0029,0.3,-0.0008181678,0.3642398,0.0009529329,0.2109167,0.03384667,-4.615505
0.00295,0.3,-4.63333e-06,0.294012,0.0005197032,0.2509761,0.04027482,-3.177394
0.003,-0.3,0.0006920816,0.2294415,-0.000141267,-0.2559723,0.04107651,-2.037891
0.00305,-0.3,0.0004467806,0.2522251,-0.0001961686,-0.498197,0.07994688,-0.9506482
0.0031,-0.3,-1.372583e-05,-0.1852004,5.587416e-05,-0.3120395,0.05007374,-1.006824
0.00315,-0.3,-6.566383e-05,-0.4506161,0.0001110091,-0.1073271,0.01722306,-2.55284
0.0032,-0.3,0.0001934478,-0.3199032,-0.0001081734,-0.1689546,0.02711255,-4.213384
0.00325,-0.3,0.0002176622,-0.1214935,-0.0002117962,-0.3494435,0.05607606,-5.10647
0.0033,-0.3,8.768728e-05,-0.1462569,-0.0001788001,-0.4002416,0.06422775,-5.716547
0.00335,-0.3,0.0001807977,-0.3032905,-0.0003039188,-0.3148735,0.05052855,-6.79522
0.0034,-0.3,0.0003628526,-0.3642448,-0.0005524518,-0.255507,0.04100192,-8.31585
0.00345,-0.3,0.0002703872,-0.2940121,-0.0006156259,-0.2955688,0.04743075,-9.753969
0.0035,0.3,1.482759e-05,-0.2294384,-0.0004851037,0.2113765,0.03392019,-10.89346
0.00355,0.3,4.227646e-05,-0.2522239,-0.000517397,0.4536017,0.07279062,-11.9807
0.0036,0.3,-0.000801912,0.1851976,0.0002682083,0.2674475,0.04291798,-11.92453
0.00365,0.3,-0.001508988,0.450612,0.001275016,0.06273761,0.01006974,-10.37853
0.0037,0.3,-0.0005275887,0.3199039,0.0009698397,0.1243622,0.01995731,-8.717987
0.00375,0.3,0.0008872529,0.1214993,-0.0001565581,0.304846,0.04891938,-7.824886
0.0038,0.3,0.0007703165,0.1462602,-0.0004148957,0.355644,0.05707111,-7.21479
0.00385,0.3,-0.0004255818,0.3032873,0.0004020732,0.2702808,0.04337267,-6.136119
0.0039,0.3,-0.000818463,0.3642408,0.0009531687,0.2109163,0.03384661,-4.615505
0.00395,0.3,-4.394911e-06,0.2940128,0.0005195541,0.2509754,0.04027472,-3.177391
0.004,-0.3,0.0006924048,0.2294413,-0.000141596,-0.2559724,0.04107651,-2.037888
0.00405,-0.3,0.0004465291,0.2522244,-0.0001960855,-0.4981965,0.07994681,-0.9506465
0.0041,-0.3,-1.406297e-05,-0.1852006,5.614345e-05,-0.3120391,0.05007368,-1.006824
0.00415,-0.3,-6.559119e-05,-0.4506156,0.0001110289,-0.1073274,0.0172231,-2.552838
0.0042,-0.3,0.0001937933,-0.3199027,-0.0001084435,-0.168955,0.02711262,-4.213381
0.00425,-0.3,0.0002176124,-0.1214937,-0.000211834,-0.3494436,0.05607607,-5.106466
0.0043,-0.3,8.757366e-05,-0.1462573,-0.0001787564,-0.4002414,0.06422772,-5.716545
0.00435,-0.3,0.0001806635,-0.3032908,-0.0003038084,-0.3148733,0.05052851,-6.795219
0.0044,-0.3,0.000362657,-0.3642449,-0.000552227,-0.2555068,0.04100189,-8.315849
0.00445,-0.3,0.0002704933,-0.2940117,-0.0006156067,-0.295569,0.04743077,-9.753968
0.0045,0.3,1.497287e-05,-0.229438,-0.0004851659,0.2113761,0.03392012,-10.89346
0.00455,0.3,4.224014e-05,-0.2522241,-0.000517347,0.4536017,0.07279062,-11.98069
0.0046,0.3,-0.0008018138,0.1851972,0.0002681454,0.2674478,0.04291802,-11.92453
0.00465,0.3,-0.00150892,0.4506119,0.00127494,0.06273767,0.01006975,-10.37853
0.0047,0.3,-0.0005275328,0.3199043,0.0009697475,0.1243618,0.01995725,-8.717985
0.00475,0.3,0.000887109,0.1214994,-0.0001564835,0.3048458,0.04891935,-7.824883
0.0048,0.3,0.0007702401,0.1462601,-0.0004148255,0.355644,0.0570711,-7.214787
0.00485,0.3,-0.0004254617,0.303287,0.0004019883,0.270281,0.04337269,-6.136117
0.0049,0.3,-0.0008184202,0.3642406,0.0009531073,0.2109164,0.03384662,-4.615505
0.00495,0.3,-4.416332e-06,0.2940126,0.0005195361,0.2509756,0.04027475,-3.177391
0.005,-0.3,0.0006926116,0.2294412,-0.0001418222,-0.2559722,0.04107649,-2.037888
0.00505,-0.3,0.000446517,0.2522244,-0.0001961896,-0.4981963,0.07994678,-0.9506473
0.0051,-0.3,-1.453236e-05,-0.1852007,5.647953e-05,-0.3120389,0.05007364,-1.006825
0.00515,-0.3,-6.56601e-05,-0.4506153,0.0001111795,-0.1073274,0.0172231,-2.552839
0.0052,-0.3,0.0001942851,-0.3199024,-0.0001087977,-0.1689551,0.02711265,-4.21338
0.00525,-0.3,0.0002178159,-0.1214936,-0.0002121188,-0.3494437,0.05607609,-5.106465
0.0053,-0.3,8.702371e-05,-0.1462574,-0.0001784091,-0.4002413,0.06422771,-5.716543
0.00535,-0.3,0.0001805536,-0.3032908,-0.0003036506,-0.3148733,0.05052851,-6.795218
0.0054,-0.3,0.0003629792,-0.3642448,-0.0005524347,-0.2555069,0.0410019,-8.315848
0.00545,-0.3,0.000270769,-0.2940117,-0.0006159043,-0.2955691,0.04743079,-9.753967
0.0055,-0.3,1.504086e-05,-0.2294381,-0.0004853807,-0.3595031,0.05769039,-10.89346
0.00555,0.3,4.179962e-05,-0.2522241,-0.0005171063,0.2036627,0.03268236,-11.98069
0.0056,0.3,0.0003507957,-0.3070757,-0.0008285176,0.4858894,0.07797198,-13.25655
0.00565,0.3,-0.000802123,0.1752284,0.0001223154,0.2798804,0.04491309,-13.32411
0.0057,0.3,-0.001961656,0.4813224,0.001559707,0.04061796,0.006522866,-11.7126
0.00575,0.3,-0.0008181781,0.3385728,0.001288885,0.1009067,0.01619406,-9.947371
0.0058,0.3,0.001107629,0.1085021,-0.0002026295,0.3037429,0.04874238,-9.056505
0.00585,0.3,0.001083322,0.1280127,-0.0006409015,0.3649507,0.05856462,-8.518713
0.0059,0.3,-0.0004917327,0.3038479,0.0004064344,0.2692935,0.04321422,-7.470716
0.00595,0.3,-0.001123069,0.3763067,0.001211968,0.1987485,0.03189425,-5.916464
0.006,-0.3,-0.000110073,0.2985941,0.0007159684,-0.3299766,0.05295227,-4.444668
0.00605,-0.3,0.0008587446,0.2233116,-0.0001599756,-0.5077013,0.08147207,-3.313669
0.0061,-0.3,0.0009235293,-0.2457363,-0.000579339,-0.2794119,0.044838,-3.584653
0.00615,-0.3,0.0003243834,-0.4589941,-0.0003939826,-0.09910883,0.01590436,-5.26013
0.0062,-0.3,-0.000172656,-0.2848041,-5.619353e-05,-0.1986132,0.03187194,-6.840481
0.00625,-0.3,-0.0002242792,-0.1020448,6.484667e-05,-0.3788324,0.06079216,-7.619022
0.0063,-0.3,0.0001832312,-0.1618388,-0.0002294585,-0.4044018,0.06489535,-8.236953
0.00635,-0.3,0.0006292481,-0.3231574,-0.000730156,-0.3084658,0.0495004,-9.396872
0.0064,-0.3,0.000573514,-0.3626712,-0.0009392497,-0.2612232,0.0419194,-10.94829
0.00645,-0.3,6.783009e-05,-0.2804551,-0.0006970149,-0.3133424,0.05028294,-12.34695
0.0065,0.3,-0.0002193004,-0.2249001,-0.0004520757,0.1965365,0.03153878,-13.45025
0.00655,0.3,0.0001111552,-0.2593589,-0.0006751399,0.447978,0.07188819,-14.54878
0.0066,0.3,-0.0008153385,0.1791122,0.0001600834,0.2637973,0.04233221,-14.52166
0.00665,0.3,-0.001847293,0.4526955,0.001481594,0.05384991,0.008644695,-12.98076
0.0067,0.3,-0.0008022431,0.3247641,0.001256783,0.1119646,0.01796836,-11.3034
0.00675,0.3,0.0009989897,0.1221546,-0.000122841,0.2944247,0.04724704,-10.39995
0.0068,0.3,0.0009912401,0.1433131,-0.000531612,0.3483773,0.05590502,-9.79667
0.00685,0.3,-0.0004935972,0.3015964,0.0004682435,0.2630465,0.04221179,-8.727774
0.0069,0.3,-0.001090921,0.3654614,0.001242192,0.2016162,0.03235446,-7.20684
0.00695,0.3,-0.0001121573,0.2956384,0.0007653718,0.2407814,0.03863897,-5.762174
0.007,-0.3,0.0008301381,0.2293193,-8.446892e-05,-0.2651806,0.04255419,-4.620132
0.00705,-0.3,0.0005645528,0.2510974,-0.0001775803,-0.5063978,0.08126289,-3.536156
0.0071,-0.3,0.000157902,-0.1855985,-2.583917e-05,-0.3204647,0.05142575,-3.595398
0.00715,-0.3,0.0002045706,-0.4500414,-0.0001360192,-0.1165121,0.018697,-5.140561
0.0072,-0.3,0.000320185,-0.3193987,-0.0003312393,-0.1783121,0.02861423,-6.798727
0.00725,-0.3,8.828379e-05,-0.1216608,-0.0002439712,-0.3583721,0.05750886,-7.691375
0.0073,-0.3,-3.504287e-05,-0.1466614,-0.0001634061,-0.4088748,0.06561314,-8.302842
0.00735,-0.3,0.0003050324,-0.303351,-0.0004723783,-0.3236655,0.05193945,-9.382393
0.0074,-0.3,0.0005906522,-0.3640038,-0.0008712016,-0.2645606,0.04245492,-10.90248
0.00745,-0.3,0.0003196355,-0.2938706,-0.0008593836,-0.3046282,0.04888462,-12.33979
0.0075,-0.3,-0.000117071,-0.2295381,-0.0005770215,-0.3683916,0.05911677,-13.4793
0.00755,0.3,-3.31644e-05,-0.25236,-0.000608088,0.1948501,0.03126822,-14.56708
0.0076,0.3,0.0004444607,-0.3070668,-0.001048717,0.4769956,0.07654483,-15.84315
0.00765,0.3,-0.0009299982,0.1753217,7.388677e-05,0.2709025,0.04347239,-15.91045
0.0077,0.3,-0.002374481,0.4813546,0.001835668,0.03165941,0.005088995,-14.29868
0.00775,0.3,-0.001044217,0.3385252,0.001559094,0.09201068,0.0147673,-12.53352
0.0078,0.3,0.001297264,0.1084623,-0.000233761,0.2948593,0.0473168,-11.64285
0.00785,0.3,0.001305884,0.1280284,-0.0007823572,0.3560308,0.05713326,-11.10509
0.0079,0.3,-0.0006163381,0.3038802,0.0005025849,0.2603512,0.04177927,-10.05697
0.00795,0.3,-0.001424789,0.376309,0.001528543,0.1898214,0.03046208,-8.502659
0.008,-0.3,-0.0001925454,0.298574,0.0009496233,-0.3388835,0.05438168,-7.030913
0.00805,-0.3,0.001029767,0.2233024,-0.0001331571,-0.5166103,0.08290172,-5.899975
0.0081,-0.3,0.00129123,-0.2457264,-0.0008108954,-0.288335,0.04627001,-6.170949
0.00815,-0.3,0.0006374754,-0.4589841,-0.0007267518,-0.1080362,0.01733722,-7.846381
0.0082,-0.3,-0.0001808293,-0.2848069,-0.0002137132,-0.2075326,0.03330328,-9.426722
0.00825,-0.3,-0.0004482716,-0.1020531,0.0001160761,-0.3877454,0.06222246,-10.20529
0.0083,-0.3,0.000118712,-0.1618407,-0.0002366548,-0.4133174,0.06632606,-10.82324
0.00835,-0.3,0.0008492023,-0.3231523,-0.0009811424,-0.3173874,0.05093217,-11.98315
0.0084,-0.3,0.0008001477,-0.3626677,-0.001288217,-0.2701454,0.04335138,-13.53455
0.00845,-0.3,4.528835e-05,-0.2804576,-0.0009033079,-0.3222603,0.0517141,-14.93321
0.0085,0.3,-0.0003829431,-0.2249041,-0.000514726,0.1876211,0.03010813,-16.03652
0.00855,0.3,7.387251e-05,-0.259359,-0.0007898495,0.4390606,0.07045723,-17.13507
0.0086,0.3,-0.0009335075,0.1791147,0.0001378651,0.2548774,0.04090081,-17.10794
0.00865,0.3,-0.002149932,0.4526961,0.001684118,0.04493085,0.007215226,-15.56703
0.0087,0.3,-0.0009815171,0.324763,0.001467998,0.1030469,0.01653786,-13.88967
0.00875,0.3,0.001127092,0.1221552,-0.0001294049,0.2855058,0.04581581,-12.98622
0.0088,0.3,0.001150249,0.1433152,-0.0006209448,0.3394567,0.05447354,-12.38293
0.00885,0.3,-0.0006003752,0.3015961,0.0005655598,0.2541273,0.04078053,-11.31403
0.0089,0.3,-0.001336552,0.3654592,0.001516102,0.192699,0.03092383,-9.793107
0.00895,0.3,-0.0001814887,0.2956381,0.0009738603,0.2318633,0.03720801,-8.348446
0.009,-0.3,0.0009655468,0.2293216,-4.190259e-05,-0.2741011,0.04398567,-7.2064
0.00905,-0.3,0.0006554611,0.2510988,-0.0001490799,-0.5153183,0.0826944,-6.122416
0.0091,-0.3,0.0003199484,-0.1855998,-0.0001028934,-0.3293833,0.05285693,-6.18166
0.00915,-0.3,0.0004881024,-0.4500429,-0.0003961656,-0.1254299,0.02012814,-7.726829
0.0092,-0.3,0.0004593357,-0.3193983,-0.0005721215,-0.1872311,0.03004556,-9.384996
0.00925,-0.3,-4.428998e-05,-0.1216602,-0.0002842823,-0.3672914,0.05894016,-10.27764
0.0093,-0.3,-0.0001672637,-0.146662,-0.0001488274,-0.4177932,0.0670443,-10.88911
0.00935,-0.3,0.0004272722,-0.3033515,-0.0006448315,-0.3325838,0.05337064,-11.96866
0.0094,-0.3,0.000824213,-0.364003,-0.001200494,-0.2734799,0.04388641,-13.48875
0.00945,-0.3,0.000372611,-0.2938701,-0.001114148,-0.3135475,0.05031605,-14.92605
0.0095,-0.3,-0.0002516992,-0.2295394,-0.0006753556,-0.3773094,0.06054787,-16.06557
0.00955,0.3,-0.0001122281,-0.2523614,-0.0007032085,0.1859327,0.02983729,-17.15336
0.0096,0.3,0.0005384758,-0.307066,-0.00127558,0.4680768,0.07511371,-18.42942
0.00965,0.3,-0.001054274,0.1753222,1.555553e-05,0.2619836,0.04204115,-18.49672
0.0097,0.3,-0.002786495,0.4813528,0.002102878,0.02274251,0.003665114,-16.88496
0.00975,0.3,-0.001271624,0.338524,0.001822287,0.08309399,0.0133375,-15.11981
0.0098,0.3,0.001485856,0.1084653,-0.0002716458,0.2859392,0.04588538,-14.22913
0.00985,0.3,0.001528736,0.1280318,-0.0009314006,0.347109,0.05570163,-13.69135
0.0099,0.3,-0.000740286,0.303879,0.0005906774,0.2514324,0.04034808,-12.64323
0.00995,0.3,-0.001727212,0.3763053,0.001838081,0.1809054,0.02903183,-11.08893
0.01,-0.3,-0.0002756007,0.2985736,0.001176419,-0.347801,0.05581279,-9.617191
