time_s,iq_ref_a,id_a,iq_a,vd_v,vq_v,voltage_mag_norm,wm_rad_per_s
0,-0.3,0,0,0,-0.3,0.04814173,0
5e-05,-0.3,0,0,0,-0.6,0.09628347,0
0.0001,-0.3,2.718733e-05,-0.2586925,-2.718733e-05,-0.6413075,0.1029122,-0.6999854
0.00015,-0.3,0.0004562977,-0.5488418,-0.0004834851,-0.3924657,0.06297997,-2.641434
0.0002,-0.3,0.00162523,-0.616303,-0.002108715,-0.0761627,0.0122267,-5.277277
0.00025,-0.3,0.001783298,-0.4026307,-0.003892013,0.02646798,0.004293055,-7.453962
0.0003,-0.3,-0.0008920595,-0.09571872,-0.002999953,-0.1778133,0.0285382,-8.423236
0.00035,-0.3,-0.003646388,0.03543346,0.000646435,-0.5132468,0.08236203,-8.496199
0.0004,-0.3,-0.001860773,-0.1234901,0.002507207,-0.6897567,0.1106877,-8.767835
0.00045,-0.3,0.00424606,-0.4324937,-0.001738852,-0.557263,0.08942579,-10.15597
0.0005,0.3,0.009060327,-0.6205966,-0.01079918,0.3633337,0.05833079,-12.59823
0.00055,0.3,0.006212003,-0.5234972,-0.01701118,1.186831,0.1904732,-15.10954
0.0006,0.3,-0.01248947,0.2902126,-0.004521712,1.196618,0.1920256,-15.24763
0.00065,0.3,-0.03172123,1.106045,0.02719952,0.3905728,0.06282797,-11.74268
0.0007,0.3,-0.02103451,1.210027,0.04823403,-0.5194536,0.08371657,-6.517339
0.00075,0.3,0.01788504,0.5131955,0.03034899,-0.732649,0.1176708,-2.994171
0.0008,0.3,0.04567201,-0.3723342,-0.01532302,-0.06031483,0.009986331,-3.096388
0.00085,0.3,0.03463458,-0.6707271,-0.0499576,0.9104123,0.1463159,-5.56817
0.0009,0.3,-0.008004915,-0.1224572,-0.04195268,1.33287,0.2139947,-7.08267
0.00095,0.3,-0.04931535,0.7899459,0.007362667,0.8429236,0.1352712,-5.161052
0.001,-0.3,-0.04870685,1.266904,0.05606952,-0.7239804,0.1165268,-0.339435
0.00105,-0.3,-0.0004706383,0.8921291,0.05654015,-1.91611,0.3076166,4.309489
0.0011,-0.3,0.04673337,-0.5216077,0.009806782,-1.694502,0.2719254,4.472034
0.00115,-0.3,0.04910585,-1.733376,-0.03929906,-0.2611262,0.04237545,-1.138409
0.0012,-0.3,0.01720504,-1.682493,-0.0565041,1.121367,0.1801768,-8.748876
0.00125,-0.3,-0.02851552,-0.4175144,-0.02798858,1.238881,0.1988571,-12.84645
0.0013,-0.3,-0.06364162,0.9503796,0.03565305,-0.01149809,0.0060115,-11.01104
0.00135,-0.3,-0.04482779,1.223892,0.08048083,-1.53539,0.246726,-6.022755
0.0014,-0.3,0.02444217,0.166852,0.05603866,-2.002242,0.3214305,-3.412326
0.00145,-0.3,0.07858741,-1.291882,-0.02254875,-1.01036,0.1621753,-6.613836
0.0015,0.3,0.07187896,-1.873935,-0.09442771,1.163575,0.1873355,-13.96375
0.00155,0.3,0.004051097,-1.072734,-0.09847881,2.536309,0.4073143,-20.17197
0.0016,0.3,-0.09821992,0.9226091,-0.0002588928,1.913699,0.307096,-19.56675
0.00165,0.3,-0.139985,2.36282,0.1397261,-0.149121,0.03279315,-11.54498
0.0017,0.3,-0.03979391,1.99066,0.17952,-1.839781,0.2966363,-1.990516
0.00175,0.3,0.1160974,0.1358127,0.0634226,-1.675593,0.2690791,1.888767
0.0018,0.3,0.170072,-1.574565,-0.1066494,0.1989719,0.03622695,-2.132252
0.00185,0.3,0.08165263,-1.642472,-0.188302,2.141444,0.3449686,-9.354429
0.0019,0.3,-0.08128101,-0.0142206,-0.107021,2.455664,0.3944405,-12.28963
0.00195,0.3,-0.1940236,1.879349,0.08700264,0.8763156,0.1413159,-7.228599
0.002,-0.3,-0.1337003,2.381957,0.2207029,-1.805641,0.2919121,2.531809
0.00205,-0.3,0.05965143,1.056887,0.1610515,-3.162529,0.5081563,9.593987
0.0021,-0.3,0.1877172,-1.450009,-0.02666575,-2.012519,0.3229822,7.535802
0.00215,-0.3,0.1465971,-2.938361,-0.1732629,0.6258416,0.104208,-2.97312
0.0022,-0.3,0.0025042,-2.107461,-0.1757671,2.433303,0.3914954,-13.859
0.00225,-0.3,-0.1534061,0.3058633,-0.02236095,1.82744,0.2932756,-16.74765
0.0023,-0.3,-0.2049504,2.185007,0.1825895,-0.6575677,0.109514,-10.29479
0.00235,-0.3,-0.06423442,1.889321,0.2468239,-2.846889,0.4585609,-1.328263
0.0024,-0.3,0.1510822,-0.317694,0.09574166,-2.829195,0.4542677,1.145142
0.00245,-0.3,0.2347836,-2.499404,-0.139042,-0.6297905,0.1034977,-6.178735
0.0025,0.3,0.1317961,-2.744519,-0.270838,2.414728,0.3899271,-18.01479
0.00255,0.3,-0.0890587,-0.846938,-0.1817793,3.561666,0.5722932,-25.14619
0.0026,0.3,-0.2925373,2.041192,0.1107579,1.820474,0.2926761,-21.11366
0.00265,0.3,-0.2607014,3.394558,0.3714594,-1.274084,0.2129677,-8.327002
0.0027,0.3,0.04556757,2.035417,0.3258918,-3.009501,0.4857652,3.16847
0.00275,0.3,0.3273175,-0.8445432,-0.001425713,-1.864957,0.2992744,4.474863
0.0028,0.3,0.3181564,-2.718782,-0.3195821,1.153825,0.1921281,-4.372022
0.00285,0.3,0.04972485,-1.947394,-0.3693069,3.401219,0.54901,-14.43745
0.0029,0.3,-0.2798248,0.7820078,-0.0894821,2.919211,0.468673,-15.75399
0.00295,0.3,-0.3991849,3.076118,0.3097028,0.1430936,0.05474712,-6.049514
0.003,-0.3,-0.1465799,2.933536,0.4562827,-3.090443,0.501307,7.314176
0.00305,-0.3,0.251646,0.4806372,0.2046366,-3.87108,0.622069,13.79188
0.0031,-0.3,0.3985424,-2.648201,-0.1939058,-1.522879,0.2463532,7.475872
0.00315,-0.3,0.2080342,-3.704767,-0.40194,1.881888,0.3088025,-7.221129
0.0032,-0.3,-0.1285293,-1.772718,-0.2734106,3.354606,0.5401068,-18.55178
0.00325,-0.3,-0.3884224,1.4422,0.1150118,1.612405,0.259404,-17.77289
0.0033,-0.3,-0.3375913,3.127895,0.4526031,-1.81549,0.300253,-6.764408
0.00335,-0.3,0.04330927,1.816683,0.4092938,-3.932173,0.6344144,3.668802
0.0034,-0.3,0.3959504,-1.341492,0.01334342,-2.890681,0.4638795,3.24474
0.00345,-0.3,0.4018468,-3.574865,-0.3885033,0.3841841,0.08767911,-8.795921
0.0035,0.3,0.0902651,-2.929268,-0.4787684,3.613452,0.5849271,-23.02834
0.00355,0.3,-0.324912,0.01329543,-0.1538564,3.900157,0.6263545,-28.15409
0.0036,0.3,-0.5381253,3.189126,0.3842689,1.01103,0.173566,-19.49612
0.00365,0.3,-0.2722749,3.830921,0.6565437,-2.519891,0.4178728,-3.505043
0.0037,0.3,0.2920957,1.380672,0.364448,-3.600562,0.5807433,6.989588
0.00375,0.3,0.5986691,-2.017363,-0.234221,-1.2832,0.2093203,3.968233
0.0038,0.3,0.387191,-3.378965,-0.621412,2.395765,0.3971764,-8.734795
0.00385,0.3,-0.1387444,-1.51961,-0.4826675,4.215375,0.6808714,-18.80516
0.0039,0.3,-0.5877708,1.915664,0.1051033,2.59971,0.4175227,-16.2967
0.00395,0.3,-0.552087,3.924743,0.6571902,-1.025033,0.195394,-2.296984
0.004,-0.3,0.01113778,2.757889,0.6460524,-4.082922,0.663348,12.08914
0.00405,-0.3,0.5651453,-0.567669,0.08090711,-3.815252,0.6123804,15.42338
0.0041,-0.3,0.5882949,-3.647728,-0.5073878,-0.4675238,0.1107168,4.553079
0.00415,-0.3,0.1352518,-3.776512,-0.6426396,3.008988,0.4937493,-12.10139
0.0042,-0.3,-0.4118434,-0.8608218,-0.2307962,3.569809,0.574052,-21.08772
0.00425,-0.3,-0.6578977,2.534554,0.4271015,0.7352555,0.1364503,-15.74301
0.0043,-0.3,-0.3358867,3.449878,0.7629882,-3.014622,0.4990176,-1.937749
0.00435,-0.3,0.3231658,1.088397,0.4398224,-4.403018,0.7100795,7.094105
0.0044,-0.3,0.6925193,-2.482665,-0.2526969,-2.220353,0.3586056,2.298015
0.00445,-0.3,0.4700962,-4.125672,-0.722793,1.605318,0.282517,-13.24716
0.0045,0.3,-0.12638,-2.411738,-0.5964131,4.317056,0.6993483,-27.04751
0.00455,0.3,-0.6705313,1.136404,0.0741182,3.480652,0.5586753,-28.21654
0.0046,0.3,-0.7052528,3.938025,0.7793709,-0.1573737,0.1275918,-15.55187
0.00465,0.3,-0.08034515,3.55836,0.8597161,-3.415733,0.5652264,1.021585
0.0047,0.3,0.6655598,0.3235047,0.1941562,-3.439238,0.5527816,8.176939
0.00475,0.3,0.8169435,-2.932293,-0.6227872,-0.2069454,0.1053132,0.8142295
0.0048,0.3,0.2778811,-3.347969,-0.9006683,3.441024,0.5707914,-13.41887
0.00485,0.3,-0.4949285,-0.5782483,-0.4057398,4.319272,0.6961755,-20.88306
0.0049,0.3,-0.8992901,2.939006,0.4935503,1.680266,0.2810278,-13.94379
0.00495,0.3,-0.5221599,4.141679,1.01571,-2.161413,0.3832361,2.446299
0.005,-0.3,0.3611925,1.978605,0.6545177,-4.440018,0.7202004,15.10942
0.00505,-0.3,0.9072458,-1.663293,-0.2527281,-3.076725,0.4953924,14.1063
0.0051,-0.3,0.6401986,-4.093516,-0.8929268,0.7167912,0.1837467,0.095115
0.00515,-0.3,-0.132391,-3.18351,-0.7605357,3.600301,0.5904989,-15.73921
0.0052,-0.3,-0.7938518,0.2419194,0.03331614,3.058382,0.4908151,-20.69178
0.00525,-0.3,-0.822129,3.183857,0.8554451,-0.4254754,0.1533176,-11.64615
0.0053,-0.3,-0.1133772,3.084471,0.9688223,-3.809946,0.6308487,2.314875
0.00535,-0.3,0.7266152,0.02599967,0.2422071,-4.135946,0.6648424,7.829608
0.0054,-0.3,0.9183133,-3.310062,-0.6761062,-1.125884,0.210747,-1.080569
0.00545,-0.3,0.3405486,-3.991442,-1.016655,2.565559,0.4428481,-17.72168
0.0055,-0.3,-0.5167953,-1.443895,-0.4998594,3.709453,0.6006452,-28.66044
0.00555,0.3,-1.003085,2.085956,0.5032251,1.923498,0.3190569,-25.55057
0.0056,0.3,-0.6481656,3.532158,1.151391,-1.30866,0.2797146,-12.31244
0.00565,0.3,0.3246651,2.158412,0.8267257,-3.167073,0.5252581,-0.2434117
0.0057,0.3,1.043264,-0.8455629,-0.2165385,-2.02151,0.3262524,1.277328
0.00575,0.3,0.8565761,-2.844077,-1.073115,1.122567,0.2492097,-7.912075
0.0058,0.3,-0.05653018,-2.088763,-1.016584,3.51133,0.5866114,-18.57871
0.00585,0.3,-0.9489461,0.7370936,-0.0676384,3.074237,0.4934496,-20.25777
0.0059,0.3,-1.06407,3.165804,0.9964312,0.2084322,0.1633606,-10.38648
0.00595,0.3,-0.2301711,3.09116,1.226602,-2.582728,0.4588231,3.560576
0.006,-0.3,0.8337483,0.5686021,0.392854,-3.45133,0.5574198,10.5569
0.00605,-0.3,1.155439,-2.194209,-0.7625855,-1.557121,0.2782318,5.626361
0.0061,-0.3,0.4808416,-3.278943,-1.243427,1.421821,0.3031055,-7.118558
0.00615,-0.3,-0.5842854,-1.749985,-0.6591415,2.871806,0.4728287,-17.63216
0.0062,-0.3,-1.171005,1.034153,0.5118635,1.537653,0.2600635,-17.91069
0.00625,-0.3,-0.7699611,2.652672,1.281824,-1.415019,0.3063869,-8.907671
0.0063,-0.3,0.3261274,1.700121,0.9556969,-3.41514,0.5690901,0.3703091
0.00635,-0.3,1.155331,-0.9993163,-0.1996341,-2.715824,0.4369907,0.6664464
0.0064,-0.3,0.9849105,-3.075552,-1.184545,0.05972791,0.1903283,-9.421302
0.00645,-0.3,-0.01568484,-2.712796,-1.16886,2.472524,0.438874,-22.18443
0.0065,0.3,-1.022911,-0.2546871,-0.1459486,3.02721,0.4863481,-27.6433
0.00655,0.3,-1.203077,2.15277,1.057128,1.17444,0.2535683,-22.25665
0.0066,0.3,-0.3472906,2.950673,1.404419,-1.476233,0.3269725,-10.4779
0.00665,0.3,0.8552245,1.436624,0.5491944,-2.612857,0.4284535,-1.388146
0.0067,0.3,1.334597,-1.07867,-0.7854027,-1.234187,0.2347551,-1.772929
0.00675,0.3,0.661383,-2.385805,-1.446785,1.451618,0.3288856,-10.13321
0.0068,0.3,-0.5783038,-1.348924,-0.8684816,3.100543,0.5167019,-17.98489
0.00685,0.3,-1.34813,1.109295,0.4796482,2.291247,0.3756521,-17.3509
0.0069,0.3,-0.976897,2.855268,1.456545,-0.2640214,0.2375443,-7.666642
0.00695,0.3,0.2675092,2.371776,1.189036,-2.335797,0.4206017,3.786577
0.007,-0.3,1.2975,0.065846,-0.108464,-2.701643,0.4338884,8.154116
0.00705,-0.3,1.190535,-2.037174,-1.298999,-0.9644682,0.2596282,2.759322
0.0071,-0.3,0.06087112,-2.601557,-1.35987,1.337089,0.306038,-7.874471
0.00715,-0.3,-1.108162,-1.152907,-0.2517077,2.189996,0.3537476,-15.57467
0.0072,-0.3,-1.340389,1.032193,1.088681,0.8578031,0.2224181,-14.80733
0.00725,-0.3,-0.4251962,2.061837,1.513877,-1.504034,0.3424477,-7.409353
0.0073,-0.3,0.8785514,1.036308,0.635326,-2.840341,0.4670596,-0.9701288
0.00735,-0.3,1.43154,-1.156504,-0.7962137,-1.983837,0.3430346,-2.272035
0.0074,-0.3,0.7506523,-2.590003,-1.546866,0.3061661,0.2530448,-11.32264
0.00745,-0.3,-0.5666895,-2.019022,-0.9801764,2.025187,0.3610498,-21.34653
0.0075,-0.3,-1.416381,0.03862619,0.4362048,1.686561,0.2795522,-24.78658
0.00755,0.3,-1.079339,1.802404,1.515543,0.1841578,0.2449918,-19.83571
0.0076,0.3,0.2014558,1.752607,1.314088,-1.268449,0.2930891,-11.92045
0.00765,0.3,1.335345,0.4382305,-0.02125752,-1.406679,0.225759,-7.649211
0.0077,0.3,1.32602,-1.003572,-1.347277,-0.1031076,0.2168331,-9.595748
0.00775,0.3,0.1725854,-1.313399,-1.519863,1.510292,0.3438368,-14.91805
0.0078,0.3,-1.139961,-0.2308288,-0.3799024,2.04112,0.3331687,-17.84745
0.00785,0.3,-1.490061,1.302022,1.110158,1.039098,0.2440119,-14.72211
0.0079,0.3,-0.5552925,1.966458,1.665451,-0.6273596,0.2855917,-7.105949
0.00795,0.3,0.8787742,1.179188,0.7866768,-1.506548,0.2727346,-0.4483454
0.008,-0.3,1.560628,-0.3845046,-0.7739514,-1.422043,0.2598072,0.5921405
0.00805,-0.3,0.8909711,-1.350476,-1.664922,-0.3715672,0.2737468,-3.741414
0.0081,-0.3,-0.5449718,-1.392142,-1.119951,0.7205751,0.2137067,-9.887312
0.00815,-0.3,-1.510129,-0.4849445,0.3901788,0.9055196,0.1582266,-13.64558
0.0082,-0.3,-1.179725,0.5851583,1.569903,0.0203613,0.2519474,-12.91334
0.00825,-0.3,0.1687737,0.8981124,1.40113,-1.177751,0.2937243,-9.455537
0.0083,-0.3,1.380669,0.1753979,0.02046072,-1.653149,0.2653052,-7.402608
0.00835,-0.3,1.406334,-0.9602338,-1.385873,-0.9929151,0.273582,-9.695963
0.0084,-0.3,0.221707,-1.519548,-1.60758,0.2266334,0.2605233,-15.49981
0.00845,-0.3,-1.154838,-1.024392,-0.452742,0.9510251,0.1690243,-20.93841
0.0085,0.3,-1.548714,0.09541863,1.095972,1.155607,0.2555788,-22.47299
0.00855,0.3,-0.6180521,0.8879691,1.714024,0.5676374,0.2897446,-19.90262
0.0086,0.3,0.8444735,1.188086,0.8695508,-0.3204484,0.1487127,-15.13269
0.00865,0.3,1.588076,0.7119561,-0.7185246,-0.7324045,0.1646461,-11.119
0.0087,0.3,0.9686385,-0.1408953,-1.687163,-0.2915092,0.2747547,-10.24601
0.00875,0.3,-0.4849842,-0.6249582,-1.202179,0.633449,0.2180591,-12.17998
0.0088,0.3,-1.521887,-0.3139001,0.3197078,1.247349,0.2066354,-14.1212
0.00885,0.3,-1.252129,0.531865,1.571837,1.015484,0.3002971,-13.23081
0.0089,0.3,0.09417576,1.186111,1.477661,0.1293733,0.238031,-9.087583
0.00895,0.3,1.364462,1.068804,0.1131992,-0.6394311,0.1042066,-4.107663
0.009,-0.3,1.461673,0.268583,-1.348474,-1.208014,0.2905251,-1.496131
0.00905,-0.3,0.295595,-0.5117202,-1.644069,-0.9962939,0.3084898,-2.406788
0.0091,-0.3,-1.124476,-1.103914,-0.5195923,-0.1923794,0.08891186,-6.29328
0.00915,-0.3,-1.568272,-0.9928322,1.04868,0.5004528,0.1864647,-10.92049
0.0092,-0.3,-0.6579284,-0.26825,1.706608,0.4687027,0.2840042,-13.39716
0.00925,-0.3,0.8139334,0.4472615,0.8926746,-0.2785588,0.1500621,-12.6686
0.0093,-0.3,1.580989,0.5187251,-0.6883147,-1.097284,0.2078604,-10.48408
0.00935,-0.3,0.9872538,-0.1322511,-1.675569,-1.265033,0.3369095,-9.928701
0.0094,-0.3,-0.453262,-0.9389786,-1.222306,-0.6260541,0.2203782,-12.69732
0.00945,-0.3,-1.496352,-1.193476,0.2740457,0.2674217,0.06144553,-17.57077
0.0095,-0.3,-1.248169,-0.6623807,1.522214,0.6298024,0.2643555,-21.46017
0.00955,0.3,0.06559122,0.2110845,1.456623,0.7187179,0.2606532,-22.0649
0.0096,0.3,1.313884,0.6640395,0.1427389,0.3546785,0.06135238,-19.91151
0.00965,0.3,1.423837,0.7914933,-1.281098,-0.1368148,0.20675,-16.60722
0.0097,0.3,0.3087156,0.4616149,-1.589814,-0.2984297,0.2595772,-13.95906
0.00975,0.3,-1.066202,-0.0319013,-0.5236115,0.03347161,0.08419673,-13.22169
0.0098,0.3,-1.51595,-0.241443,0.9923384,0.5749146,0.1840376,-13.92257
0.00985,0.3,-0.6571848,0.03107214,1.649523,0.8438424,0.2973289,-14.26404
0.0099,0.3,0.7635435,0.5531815,0.8859798,0.5906609,0.1708742,-12.72069
0.00995,0.3,1.520694,0.855455,-0.6347147,0.0352059,0.1020108,-9.437423
0.01,-0.3,0.965834,0.6565065,-1.600549,-0.9213006,0.2963553,-6.15277
