time_s,iq_ref_a,id_a,iq_a,vd_v,vq_v,voltage_mag_norm,wm_rad_per_s
0,-0.3,0,0,0,-0.04146902,0.006654635,0
5e-05,-0.3,0,0,0,-0.1168673,0.01875397,0
0.0001,-0.3,6.20444e-07,-0.03575904,-8.576401e-08,-0.1873225,0.0300601,-0.09675892
0.00015,-0.3,1.329903e-05,-0.105124,-1.994261e-06,-0.2441452,0.03917857,-0.4442922
0.0002,-0.3,8.188517e-05,-0.1738373,-1.481734e-05,-0.2836246,0.04551394,-1.100121
0.00025,-0.3,0.0002573062,-0.2297942,-5.964579e-05,-0.3075978,0.04936098,-2.028578
0.0003,-0.3,0.000548422,-0.2683307,-0.0001645549,-0.3199156,0.05133764,-3.160023
0.00035,-0.3,0.0009101395,-0.2906337,-0.0003523886,-0.324792,0.0521202,-4.4198
0.0004,-0.3,0.001270404,-0.3003997,-0.000630931,-0.325796,0.05228138,-5.745348
0.00045,-0.3,0.001566563,-0.3019281,-0.0009911564,-0.3254843,0.05223151,-7.092261
0.0005,0.3,0.001766123,-0.2989858,-0.001412462,-0.2424684,0.03891015,-8.433909
0.00055,0.3,0.001868892,-0.2943461,-0.001870543,-0.09256819,0.01485768,-9.757812
0.0006,0.3,0.001209319,-0.2182267,-0.002249073,0.04628529,0.007436277,-10.86756
0.00065,0.3,-0.0004790027,-0.07580864,-0.002319631,0.1568434,0.0251718,-11.45765
0.0007,0.3,-0.002456751,0.06413087,-0.001925861,0.2319506,0.03722296,-11.41784
0.00075,0.3,-0.003977363,0.1774816,-0.001098217,0.2755625,0.04422053,-10.82445
0.0008,0.3,-0.004542187,0.2551782,-2.05214e-05,0.2956147,0.04743801,-9.820867
0.00085,0.3,-0.004108484,0.2998823,0.001061104,0.3007002,0.0482544,-8.559259
0.0009,0.3,-0.002965348,0.3192294,0.001935663,0.2980554,0.04783069,-7.166444
0.00095,0.3,-0.001526197,0.3219918,0.002482002,0.2928407,0.04699455,-5.732028
0.001,-0.3,-0.0001530014,0.3158101,0.00267576,0.20523,0.03293656,-4.309467
0.00105,-0.3,0.0009298958,0.3062839,0.002564525,0.0517769,0.008318951,-2.923588
0.0011,-0.3,0.001847474,0.2253799,0.00220398,-0.08941551,0.01435308,-1.773428
0.00115,-0.3,0.00235602,0.07914501,0.001669362,-0.2012438,0.0322952,-1.161682
0.0012,-0.3,0.002314195,-0.06338571,0.001083011,-0.2768313,0.04442414,-1.193576
0.00125,-0.3,0.001979066,-0.1782006,0.0005477156,-0.3204281,0.05141995,-1.787581
0.0013,-0.3,0.001658608,-0.2564986,9.461897e-05,-0.3402165,0.05459538,-2.795995
0.00135,-0.3,0.001516236,-0.3012446,-0.0003025546,-0.3449644,0.0553573,-4.063611
0.0014,-0.3,0.00154857,-0.3203394,-0.0006880958,-0.3420121,0.05488363,-5.461832
0.00145,-0.3,0.001666091,-0.3227509,-0.001093539,-0.3365669,0.05401,-6.900263
0.0015,0.3,0.001779092,-0.31624,-0.001527893,-0.248811,0.03992806,-8.325333
0.00155,0.3,0.001839098,-0.3064629,-0.001983323,-0.09528446,0.01529384,-9.712461
0.0016,0.3,0.001156161,-0.2254024,-0.002351136,0.04593129,0.007380356,-10.863
0.00165,0.3,-0.0005532806,-0.0790958,-0.002405415,0.1577553,0.02531833,-11.47464
0.0017,0.3,-0.002549125,0.06344911,-0.001990474,0.2333285,0.03744416,-11.44248
0.00175,0.3,-0.004076027,0.1782517,-0.001138745,0.2769111,0.04443697,-10.84821
0.0018,0.3,-0.004629932,0.2565363,-3.77617e-05,0.2966885,0.04761033,-9.839586
0.00185,0.3,-0.00417283,0.3012764,0.001062682,0.3014277,0.04837114,-8.571811
0.0019,0.3,-0.003001407,0.3203732,0.001949503,0.2984671,0.04789677,-7.173441
0.00195,0.3,-0.001536783,0.3227882,0.002501383,0.293013,0.04702222,-5.734852
0.002,-0.3,-0.0001457222,0.3162769,0.002695332,0.2052477,0.03293944,-4.309623
0.00205,-0.3,0.0009463914,0.3064937,0.002580993,0.05171273,0.008308797,-2.922353
0.0021,-0.3,0.001866845,0.2254186,0.002215905,-0.08950875,0.01436809,-1.771718
0.00215,-0.3,0.002372866,0.07908956,0.001676768,-0.2013338,0.03230964,-1.160053
0.0022,-0.3,0.00232669,-0.06347822,0.001086785,-0.2769022,0.04443552,-1.192295
0.00225,-0.3,0.001987083,-0.178294,0.0005489679,-0.3204756,0.05142758,-1.786717
0.0023,-0.3,0.001662908,-0.2565745,9.437023e-05,-0.340243,0.05459962,-2.795501
0.00235,-0.3,0.00151781,-0.301297,-0.0003035073,-0.344975,0.055359,-4.063392
0.0024,-0.3,0.001548596,-0.3203695,-0.00068923,-0.3420126,0.05488371,-5.461787
0.00245,-0.3,0.001665391,-0.3227638,-0.001094579,-0.3365622,0.05400925,-6.900307
0.0025,0.3,0.001777899,-0.3162418,-0.00152869,-0.2488046,0.03992704,-8.325403
0.00255,0.3,0.001837969,-0.3064591,-0.001983828,-0.09527838,0.01529287,-9.712523
0.0026,0.3,0.001155578,-0.225396,-0.002351433,0.04593606,0.007381123,-10.86304
0.00265,0.3,-0.0005536545,-0.07908955,-0.002405594,0.1577585,0.02531884,-11.47466
0.0027,0.3,-0.00254968,0.06345414,-0.001990535,0.2333303,0.03744445,-11.44246
0.00275,0.3,-0.004076311,0.1782551,-0.001138704,0.2769118,0.04443709,-10.84817
0.0028,0.3,-0.004630238,0.2565382,-3.764575e-05,0.2966886,0.04761034,-9.839544
0.00285,0.3,-0.004173029,0.3012773,0.00106286,0.3014274,0.0483711,-8.571763
0.0029,0.3,-0.003001317,0.3203733,0.001949691,0.2984668,0.04789671,-7.173391
0.00295,0.3,-0.001536511,0.3227876,0.002501524,0.2930127,0.04702217,-5.734804
0.003,-0.3,-0.0001454093,0.3162763,0.002695399,0.2052476,0.03293942,-4.309578
0.00305,-0.3,0.0009468868,0.3064931,0.002580956,0.05171275,0.0083088,-2.922311
0.0031,-0.3,0.001867071,0.2254182,0.002215781,-0.0895086,0.01436806,-1.771678
0.00315,-0.3,0.002372942,0.07908951,0.001676608,-0.2013336,0.03230961,-1.160014
0.0032,-0.3,0.002326664,-0.06347832,0.001086619,-0.276902,0.04443548,-1.192256
0.00325,-0.3,0.001986913,-0.1782938,0.0005488287,-0.3204755,0.05142755,-1.786677
0.0033,-0.3,0.001662645,-0.2565745,9.42865e-05,-0.3402428,0.05459959,-2.795461
0.00335,-0.3,0.001517784,-0.3012968,-0.0003035576,-0.3449748,0.05535897,-4.063352
0.0034,-0.3,0.001548517,-0.3203693,-0.0006892666,-0.3420125,0.05488369,-5.461746
0.00345,-0.3,0.001665205,-0.3227639,-0.001094581,-0.3365622,0.05400924,-6.900267
0.0035,0.3,0.00177801,-0.3162421,-0.001528686,-0.2488044,0.03992701,-8.325364
0.00355,0.3,0.001837876,-0.3064592,-0.001983824,-0.09527817,0.01529283,-9.712485
0.0036,0.3,0.001155306,-0.2253963,-0.002351381,0.04593632,0.007381164,-10.863
0.00365,0.3,-0.0005535372,-0.0790894,-0.002405527,0.1577588,0.02531888,-11.47462
0.0037,0.3,-0.002549362,0.06345412,-0.001990525,0.2333306,0.03744449,-11.44243
0.00375,0.3,-0.004075773,0.1782551,-0.001138804,0.2769121,0.04443714,-10.84814
0.0038,0.3,-0.004629925,0.2565381,-3.785058e-05,0.2966889,0.04761038,-9.839506
0.00385,0.3,-0.004172862,0.3012773,0.001062596,0.3014278,0.04837115,-8.571725
0.0039,0.3,-0.003001265,0.3203733,0.001949401,0.2984671,0.04789676,-7.173353
0.00395,0.3,-0.001536831,0.3227878,0.002501273,0.293013,0.04702222,-5.734765
0.004,-0.3,-0.00014548,0.3162767,0.002695194,0.2052478,0.03293945,-4.309537
0.00405,-0.3,0.0009467378,0.3064934,0.00258078,0.05171287,0.008308819,-2.922268
0.0041,-0.3,0.001866937,0.2254186,0.002215639,-0.08950857,0.01436806,-1.771634
0.00415,-0.3,0.002372637,0.07908951,0.001676524,-0.2013336,0.03230961,-1.15997
0.0042,-0.3,0.002326502,-0.0634784,0.001086592,-0.276902,0.04443548,-1.192212
0.00425,-0.3,0.001986917,-0.1782939,0.0005488191,-0.3204754,0.05142755,-1.786633
0.0043,-0.3,0.001662675,-0.2565746,9.427237e-05,-0.3402428,0.05459959,-2.795418
0.00435,-0.3,0.001517676,-0.3012967,-0.0003035602,-0.3449748,0.05535897,-4.063309
0.0044,-0.3,0.001548328,-0.3203695,-0.0006892307,-0.3420125,0.05488369,-5.461703
0.00445,-0.3,0.001665279,-0.3227638,-0.001094534,-0.3365621,0.05400923,-6.900223
0.0045,0.3,0.001777939,-0.316242,-0.001528637,-0.2488044,0.03992701,-8.32532
0.00455,0.3,0.001837969,-0.3064592,-0.00198378,-0.09527816,0.01529283,-9.712442
0.0046,0.3,0.001155492,-0.2253961,-0.002351373,0.04593631,0.007381163,-10.86296
0.00465,0.3,-0.0005537216,-0.07908972,-0.002405516,0.1577588,0.02531889,-11.47458
0.0047,0.3,-0.002549571,0.06345394,-0.001990464,0.2333306,0.0374445,-11.44238
0.00475,0.3,-0.004076004,0.178255,-0.001138688,0.2769122,0.04443715,-10.84809
0.0048,0.3,-0.004629932,0.2565382,-3.770663e-05,0.296689,0.0476104,-9.839465
0.00485,0.3,-0.004172608,0.3012773,0.001062706,0.3014278,0.04837116,-8.571684
0.0049,0.3,-0.00300096,0.3203734,0.00194944,0.2984672,0.04789677,-7.173312
0.00495,0.3,-0.001536541,0.3227878,0.002501237,0.293013,0.04702223,-5.734724
0.005,-0.3,-0.0001453087,0.3162763,0.002695102,0.2052479,0.03293946,-4.309497
0.00505,-0.3,0.0009467453,0.3064931,0.002580667,0.05171306,0.008308848,-2.92223
0.0051,-0.3,0.001866974,0.2254186,0.00221552,-0.08950834,0.01436802,-1.771596
0.00515,-0.3,0.002372626,0.07908942,0.001676402,-0.2013333,0.03230957,-1.159932
0.0052,-0.3,0.002326399,-0.06347833,0.001086486,-0.2769018,0.04443544,-1.192174
0.00525,-0.3,0.001986809,-0.1782937,0.0005487399,-0.3204752,0.05142752,-1.786595
0.0053,-0.3,0.00166259,-0.2565745,9.421722e-05,-0.3402426,0.05459955,-2.795379
0.00535,-0.3,0.001517639,-0.3012969,-0.0003036005,-0.3449746,0.05535894,-4.063271
0.0054,-0.3,0.001548342,-0.3203698,-0.0006892689,-0.3420122,0.05488364,-5.461666
0.00545,-0.3,0.001665302,-0.322764,-0.001094577,-0.3365617,0.05400917,-6.900187
0.0055,-0.3,0.001777895,-0.3162419,-0.001528677,-0.3317421,0.05323602,-8.325284
0.00555,0.3,0.001837924,-0.3064588,-0.001983808,-0.2460743,0.03948943,-9.712404
0.0056,0.3,0.001841404,-0.2969109,-0.00244621,-0.09497439,0.01524583,-11.05643
0.00565,0.3,0.001030415,-0.2178105,-0.002796902,0.04411161,0.007092912,-12.16957
0.0057,0.3,-0.0008679312,-0.07396436,-0.002793465,0.1543677,0.02477582,-12.75394
0.00575,0.3,-0.00302151,0.06634121,-0.002277641,0.2289608,0.03674371,-12.70489
0.0058,0.3,-0.004634086,0.1794502,-0.001295346,0.2720506,0.04365711,-12.10227
0.00585,0.3,-0.005192004,0.2566456,-5.355239e-05,0.2916773,0.04680617,-11.09124
0.0059,0.3,-0.004672699,0.300815,0.001179557,0.2964679,0.04757531,-9.824513
0.00595,0.3,-0.003398463,0.3197135,0.002177797,0.2936507,0.04712414,-8.428742
0.006,-0.3,-0.001817137,0.3221575,0.002813337,0.2054203,0.03296738,-6.993023
0.00605,-0.3,-0.000316605,0.3157845,0.003062614,0.04993597,0.008028405,-5.57024
0.0061,-0.3,0.001255885,0.2346504,0.00292482,-0.09361238,0.01502954,-4.378239
0.00615,-0.3,0.002541238,0.08651251,0.002431508,-0.2075076,0.03330153,-3.730206
0.0062,-0.3,0.003146997,-0.05840339,0.001709091,-0.284617,0.04567401,-3.735625
0.00625,-0.3,0.003210854,-0.1753886,0.0009093373,-0.329166,0.05282228,-4.313236
0.0063,-0.3,0.003016092,-0.2553299,0.0001292838,-0.349434,0.05607453,-5.31353
0.00635,-0.3,0.002777316,-0.3011346,-0.0005957368,-0.3543293,0.05686016,-6.57879
0.0064,-0.3,0.00257317,-0.3207884,-0.001265533,-0.3513274,0.05637873,-7.978034
0.00645,-0.3,0.00239756,-0.3233984,-0.001887967,-0.3457419,0.05548287,-9.419012
0.0065,0.3,0.00222744,-0.3168654,-0.002467023,-0.2578262,0.0413759,-10.84692
0.00655,0.3,0.002055645,-0.3069589,-0.003003093,-0.1041604,0.01672182,-12.23649
0.0066,0.3,0.001032233,-0.2257406,-0.003378266,0.03715819,0.005987458,-13.38881
0.00665,0.3,-0.001134327,-0.07929473,-0.003338211,0.149048,0.0239241,-14.00159
0.0067,0.3,-0.00352937,0.06335424,-0.002722057,0.2246568,0.03605387,-13.97002
0.00675,0.3,-0.005297899,0.1782257,-0.001590566,0.2682537,0.04304808,-13.37598
0.0068,0.3,-0.005899139,0.2565514,-0.000175949,0.2880319,0.0462212,-12.36735
0.00685,0.3,-0.005320087,0.3013141,0.001226624,0.2927642,0.046981,-11.09944
0.0069,0.3,-0.003918126,0.3204207,0.002369914,0.2897928,0.04650532,-9.700876
0.00695,0.3,-0.0021815,0.3228365,0.003114593,0.2843266,0.04562932,-8.262073
0.007,-0.3,-0.0005322546,0.3163203,0.003434888,0.1965499,0.03154566,-6.836643
0.00705,-0.3,0.0007678345,0.3065284,0.003388947,0.04300523,0.006922548,-5.449204
0.0071,-0.3,0.002010122,0.2254445,0.003024248,-0.09822375,0.01576968,-4.298441
0.00715,-0.3,0.00295946,0.07910656,0.002387822,-0.2100541,0.03371007,-3.686689
0.0072,-0.3,0.003302973,-0.06346932,0.001596545,-0.2856256,0.04583576,-3.71888
0.00725,-0.3,0.003200449,-0.1782911,0.0007805891,-0.3292004,0.05282775,-4.313281
0.0073,-0.3,0.0029217,-0.2565766,1.476001e-05,-0.3489679,0.05599972,-5.322069
0.00735,-0.3,0.002656057,-0.3013012,-0.0006828235,-0.3536991,0.05675906,-6.589978
0.0074,-0.3,0.002458513,-0.3203755,-0.001323057,-0.3507354,0.05628376,-7.988399
0.00745,-0.3,0.002305806,-0.3227713,-0.00191984,-0.3452833,0.05540931,-9.426951
0.0075,-0.3,0.00216271,-0.3162504,-0.002479572,-0.3404617,0.05463616,-10.85209
0.00755,0.3,0.002016217,-0.3064687,-0.00300287,-0.2547916,0.04088986,-12.23925
0.0076,0.3,0.001877367,-0.2969212,-0.003490408,-0.1036891,0.01664867,-13.58332
0.00765,0.3,0.0008085221,-0.2178228,-0.003814495,0.03539977,0.005713572,-14.69651
0.0077,0.3,-0.001481548,-0.07398124,-0.003701142,0.1456596,0.02338189,-15.28093
0.00775,0.3,-0.003989855,0.06632059,-0.002982065,0.2202574,0.03534848,-15.23196
0.0078,0.3,-0.005819984,0.1794299,-0.001726327,0.2633523,0.0422617,-14.62942
0.00785,0.3,-0.00641717,0.256631,-0.000181056,0.2829834,0.04541105,-13.61845
0.0079,0.3,-0.005778983,0.3008107,0.001343538,0.2877763,0.04618067,-12.35176
0.00795,0.3,-0.004283145,0.3197212,0.002589185,0.2849585,0.04572988,-10.95597
0.008,-0.3,-0.002440587,0.3221754,0.00341096,0.1967248,0.03157365,-9.520193
0.00805,-0.3,-0.0006919056,0.3158086,0.003782626,0.04123512,0.006644883,-8.097315
0.0081,-0.3,0.001259424,0.2346765,0.003686788,-0.1023196,0.01643012,-6.905203
0.00815,-0.3,0.003046688,0.08653803,0.003123207,-0.2162212,0.03470116,-6.257061
0.0082,-0.3,0.004091449,-0.05838234,0.002213074,-0.2933365,0.04707376,-6.262384
0.00825,-0.3,0.004427359,-0.1753734,0.001138348,-0.3378899,0.05422233,-6.839922
0.0083,-0.3,0.004298441,-0.2553217,4.345132e-05,-0.3581607,0.05747493,-7.840173
0.00835,-0.3,0.003946841,-0.301133,-0.0009882629,-0.3630571,0.05826088,-9.105418
0.0084,-0.3,0.003513321,-0.3207926,-0.001920287,-0.3600549,0.0577797,-10.50467
0.00845,-0.3,0.003062606,-0.3234075,-0.002740978,-0.3544677,0.05688399,-11.94569
0.0085,0.3,0.002629399,-0.3168782,-0.003450813,-0.2665492,0.04277738,-13.37364
0.00855,0.3,0.002243847,-0.3069743,-0.004058358,-0.1128798,0.0181258,-14.76328
0.0086,0.3,0.0008941442,-0.2257591,-0.004435729,0.02844308,0.004619501,-15.91568
0.00865,0.3,-0.001719229,-0.07931812,-0.004299205,0.1403382,0.02253098,-16.52854
0.0087,0.3,-0.004506411,0.06332722,-0.003481844,0.2159534,0.03465907,-16.49707
0.00875,0.3,-0.006513365,0.1781998,-0.002071838,0.2595569,0.04165306,-15.90314
0.0088,0.3,-0.00716085,0.2565332,-0.0003453486,0.2793406,0.0448265,-14.8946
0.00885,0.3,-0.006461024,0.3013084,0.001357632,0.2840757,0.04558684,-13.62673
0.0089,0.3,-0.004829973,0.3204287,0.002756004,0.2811038,0.04511159,-12.22815
0.00895,0.3,-0.002823368,0.3228565,0.003692536,0.275634,0.04423563,-10.78927
0.009,-0.3,-0.0009179562,0.3163475,0.00413874,0.1878512,0.03015226,-9.363736
0.00905,-0.3,0.0005892217,0.3065573,0.004161111,0.0342995,0.00554448,-7.976174
0.0091,-0.3,0.002152354,0.2254712,0.003796951,-0.1069364,0.01717116,-6.825293
0.00915,-0.3,0.003545396,0.07912901,0.003063445,-0.2187729,0.03511046,-6.213438
0.0092,-0.3,0.004278943,-0.06345303,0.002070992,-0.2943493,0.04723611,-6.245551
0.00925,-0.3,0.004413553,-0.1782815,0.0009769693,-0.3379273,0.05422824,-6.839903
0.0093,-0.3,0.004180662,-0.2565728,-0.000100085,-0.3576962,0.05740038,-7.848669
0.00935,-0.3,0.003794551,-0.3013035,-0.001097428,-0.3624275,0.0581599,-9.116582
0.0094,-0.3,0.003368527,-0.3203824,-0.001992213,-0.3594626,0.05768473,-10.51503
0.00945,-0.3,0.002946064,-0.3227818,-0.002780419,-0.3540083,0.05681034,-11.95362
0.0095,-0.3,0.002547458,-0.3162636,-0.003465747,-0.3491837,0.05603712,-13.37881
0.00955,0.3,0.002194613,-0.3064835,-0.004057219,-0.26351,0.04229111,-14.76604
0.0096,0.3,0.001913503,-0.2969366,-0.004569927,-0.1124038,0.01805261,-16.11017
0.00965,0.3,0.0005867258,-0.2178401,-0.004867443,0.02668925,0.004353531,-17.22343
0.0097,0.3,-0.002095323,-0.07400243,-0.004644163,0.136954,0.02198997,-17.80794
0.00975,0.3,-0.004958186,0.06629615,-0.003721817,0.2115576,0.03395441,-17.75906
0.0098,0.3,-0.007006153,0.1794062,-0.002192598,0.2546586,0.04086719,-17.15661
0.00985,0.3,-0.007642373,0.2566145,-0.000343815,0.2742946,0.04401675,-16.14572
0.0099,0.3,-0.006885529,0.300806,0.001472304,0.27909,0.04478687,-14.87906
0.00995,0.3,-0.005168229,0.3197308,0.002965444,0.2762714,0.0443365,-13.48325
0.01,-0.3,-0.003063917,0.322197,0.003973483,0.1880336,0.03018094,-12.04739
